
**** 05/09/20 16:53:38 ****** PSpice 17.2.0 (March 2016) ****** ID# 0 ********

 ** Profile: "SCHEMATIC1-test_2"  [ E:\PCB_ESP_CON_USB\Simulaciones\NILM_PROJECT_TEST2-PSpiceFiles\SCHEMATIC1\test_2.sim ] 


 ****     CIRCUIT DESCRIPTION


******************************************************************************




** Creating circuit file "test_2.cir" 
** WARNING: THIS AUTOMATICALLY GENERATED FILE MAY BE OVERWRITTEN BY SUBSEQUENT SIMULATIONS

*Libraries: 
* Profile Libraries :
* Local Libraries :
.LIB "F:/Cadence/SPB_17.2/tools/pspice/library/INA821.lib" 
* From [PSPICE NETLIST] section of F:\SPB_Data\cdssetup\OrCAD_PSpice\17.2.0\PSpice.ini file:
.lib "nom.lib" 

*Analysis directives: 
.TRAN  0 3 0 0.001 
.OPTIONS ADVCONV
.PROBE64 V(alias(*)) I(alias(*)) W(alias(*)) D(alias(*)) NOISE(alias(*)) 
.INC "..\SCHEMATIC1.net" 



**** INCLUDING SCHEMATIC1.net ****
* source NILM_PROJECT_TEST2
X_U1         VIN 0 V+ V- VOUT 0 N00879 N00171 INA821 
R_R1         N00171 N00879  24.7k TC=0,0 
V_V2         V+ 0 15
V_V3         0 V- 15
V_V4         VIN 0  
+PULSE 0 3.3 200m 1n 1n 200m 400m
R_R2         0 VOUT  1k TC=0,0 

**** RESUMING test_2.cir ****
.END

**** 05/09/20 16:53:38 ****** PSpice 17.2.0 (March 2016) ****** ID# 0 ********

 ** Profile: "SCHEMATIC1-test_2"  [ E:\PCB_ESP_CON_USB\Simulaciones\NILM_PROJECT_TEST2-PSpiceFiles\SCHEMATIC1\test_2.sim ] 


 ****     Diode MODEL PARAMETERS


******************************************************************************




               X_U1.Xe_nn.DVN  X_U1.Xi_nn.DVNF X_U1.Xi_np.DVNF X_U1.Xe_np.DVN  
          IS  100.000000E-18  100.000000E-18  100.000000E-18  100.000000E-18 
          KF   10.000000E-12    3.316625E-12    3.316625E-12   10.000000E-12 


               X_U1.XA3.Xe_n3.DVN 
          IS  100.000000E-18 
          KF    3.316625E-12 


**** 05/09/20 16:53:38 ****** PSpice 17.2.0 (March 2016) ****** ID# 0 ********

 ** Profile: "SCHEMATIC1-test_2"  [ E:\PCB_ESP_CON_USB\Simulaciones\NILM_PROJECT_TEST2-PSpiceFiles\SCHEMATIC1\test_2.sim ] 


 ****     Resistor MODEL PARAMETERS


******************************************************************************




               X_U1.R_NOISELESS 
  T_Measured   27            
   T_Current -273.15         
           R    1            


               X_U1.XA3.R_NOISELESS 
  T_Measured   27            
   T_Current -273.15         
           R    1            


               X_U1.XA2.R_NOISELESS 
  T_Measured   27            
   T_Current -273.15         
           R    1            


               X_U1.XA1.R_NOISELESS 
  T_Measured   27            
   T_Current -273.15         
           R    1            


**** 05/09/20 16:53:38 ****** PSpice 17.2.0 (March 2016) ****** ID# 0 ********

 ** Profile: "SCHEMATIC1-test_2"  [ E:\PCB_ESP_CON_USB\Simulaciones\NILM_PROJECT_TEST2-PSpiceFiles\SCHEMATIC1\test_2.sim ] 


 ****     Voltage Controlled Switch MODEL PARAMETERS


******************************************************************************




               X_U1.S_VSWITCH_1 
         RON   50            
        ROFF    1.000000E+12 
         VON     .5          
        VOFF     .1          


               X_U1.XA3.S_VSWITCH_1 
         RON    1.000000E-03 
        ROFF    1.000000E+09 
         VON     .9          
        VOFF     .8          


               X_U1.XA3.S_VSWITCH_2 
         RON     .01         
        ROFF    1.000000E+09 
         VON     .01         
        VOFF    0            


Starting pseudo-transient algorithm.

**** 05/09/20 16:53:38 ****** PSpice 17.2.0 (March 2016) ****** ID# 0 ********

 ** Profile: "SCHEMATIC1-test_2"  [ E:\PCB_ESP_CON_USB\Simulaciones\NILM_PROJECT_TEST2-PSpiceFiles\SCHEMATIC1\test_2.sim ] 


 ****     INITIAL TRANSIENT SOLUTION       TEMPERATURE =   27.000 DEG C


******************************************************************************



 NODE   VOLTAGE     NODE   VOLTAGE     NODE   VOLTAGE     NODE   VOLTAGE


(   V+)   15.0000  (   V-)  -15.0000  (  VIN)    0.0000  ( VOUT) 80.00E-06      

(N00171)    -.0180 (N00879)    -.0180 (X_U1.17) 10.00E-06                       

(X_U1.18)-1.500E-12                   (X_U1.22)-179.8E-09                       

(X_U1.23) 10.00E-06                   (X_U1.27)-9.975E-18                       

(X_U1.28)-9.975E-18                   (X_U1.29)-9.975E-18                       

(X_U1.30)  -13.0000                   (X_U1.31)   13.0000                       

(X_U1.32)-9.975E-18                   (X_U1.33)-9.975E-18                       

(X_U1.34)-1.500E-12                   (X_U1.35) 10.00E-06                       

(X_U1.36)  -13.0000                   (X_U1.37)   13.0000                       

(X_U1.38) 10.00E-06                   (X_U1.39) 3.986E-15                       

(X_U1.40)   15.0000                   (X_U1.41) 3.986E-15                       

(X_U1.42)  -15.0000                   (X_U1.INn)-9.975E-18                      

(X_U1.INp) 10.00E-06                  (X_U1.MID) 1.504E-12                      

(X_U1.NODE1)    -.0180                (X_U1.NODE2)    -.0180                    

(X_U1.VCC_B)   15.0000                (X_U1.VEE_B)  -15.0000                    

(X_U1.XU2.1)    0.0000                (X_U1.XU2.2)     .2000                    

(X_U1.GAIN_S)    3.0001               (X_U1.IN-_J1)   14.0000                   

(X_U1.OUT_J1) 80.00E-06               (X_U1.XA3.53)    -.0090                   

(X_U1.XA3.54)    -.0090               (X_U1.XA3.55)     .0010                   

(X_U1.XA3.56)     .0010               (X_U1.XA3.57)     .0845                   

(X_U1.XA3.58)     .0145               (X_U1.XA3.59) 80.00E-06                   

(X_U1.XA3.60)     .0993               (X_U1.XA3.61)     .0993                   

(X_U1.XA3.62) 8.441E-06               (X_U1.XA3.63)     .0993                   

(X_U1.XA3.64)     .0993               (X_U1.XA3.65)     .0993                   

(X_U1.XA3.66)     .0993               (X_U1.XA3.67)     .0993                   

(X_U1.XA3.68)     .0993               (X_U1.XA3.69)     .0993                   

(X_U1.XA3.70)     .0993               (X_U1.XA3.71)     .0993                   

(X_U1.XA3.72)     .0010               (X_U1.XA3.73)    -.0090                   

(X_U1.XA3.74)    -.0090               (X_U1.XA3.75)    -.0090                   

(X_U1.XA3.76)    -.0090               (X_U1.XA3.77)    -.0090                   

(X_U1.XA3.78)   13.0000               (X_U1.XA3.79)  -13.0000                   

(X_U1.XA3.80)    -.0090               (X_U1.XA3.81)     .0010                   

(X_U1.XA3.82) 1.504E-12               (X_U1.XA3.83)-649.1E-12                   

(X_U1.XA3.84)-448.9E-12               (X_U1.XA3.85)-448.9E-12                   

(X_U1.XA3.86)-649.1E-12               (X_U1.XA3.87)     .4510                   

(X_U1.XA3.88)     .4510               (X_U1.XA3.89)     .4510                   

(X_U1.XA3.90)    -.6490               (X_U1.XA3.91)    -.6490                   

(X_U1.XA3.92)    -.6490               (X_U1.XA3.93) 1.504E-12                   

(X_U1.XA3.94) 1.504E-12               (X_U1.XA3.95) 1.504E-12                   

(X_U1.XA3.96) 1.504E-12               (X_U1.XA3.97)  -14.9600                   

(X_U1.XA3.98)   14.9700               (X_U1.XA3.99)  -14.9600                   

(X_U1.XA1.183)-31.72E-06              (X_U1.XA1.184)    -.2883                  

(X_U1.XA1.185)    -.2883              (X_U1.XA1.186)    -.2883                  

(X_U1.XA1.187)    -.2883              (X_U1.XA1.188)    -.2883                  

(X_U1.XA1.189)    -.0197              (X_U1.XA1.190)    -.0197                  

(X_U1.XA1.191)    -.0180              (X_U1.XA1.192)    -.1458                  

(X_U1.XA1.193)    -.0160              (X_U1.XA1.194)-171.2E-09                  

(X_U1.XA1.195)    -.0197              (X_U1.XA1.196)    -.0197                  

(X_U1.XA1.197)    -.2883              (X_U1.XA1.198)    -.2883                  

(X_U1.XA1.199)    -.2883              (X_U1.XA1.200)    -.2883                  

(X_U1.XA1.201)    -.2883              (X_U1.XA1.202)    -.2883                  

(X_U1.XA1.203)-902.8E-06              (X_U1.XA2.137)-31.61E-06                  

(X_U1.XA2.138)    -.2874              (X_U1.XA2.139)    -.2874                  

(X_U1.XA2.140)    -.2874              (X_U1.XA2.141)    -.2874                  

(X_U1.XA2.142)    -.2874              (X_U1.XA2.143)    -.0196                  

(X_U1.XA2.144)    -.0196              (X_U1.XA2.145)    -.0180                  

(X_U1.XA2.146)    -.1453              (X_U1.XA2.147)    -.0160                  

(X_U1.XA2.148)-170.9E-09              (X_U1.XA2.149)    -.0196                  

(X_U1.XA2.150)    -.0196              (X_U1.XA2.151)    -.2874                  

(X_U1.XA2.152)    -.2874              (X_U1.XA2.153)    -.2874                  

(X_U1.XA2.154)    -.2874              (X_U1.XA2.155)    -.2874                  

(X_U1.XA2.156)    -.2874              (X_U1.XA2.157)-896.4E-06                  

(X_U1.XA3.100)   14.9700              (X_U1.XA3.101)  -18.0000                  

(X_U1.XA3.102)   18.0000              (X_U1.XA3.103) 1.504E-12                  

(X_U1.XA3.104) 1.504E-12              (X_U1.XA3.105) 1.504E-12                  

(X_U1.XA3.106) 1.504E-12              (X_U1.XA3.107) 1.504E-12                  

(X_U1.XA3.108) 1.504E-12              (X_U1.XA3.109) 1.504E-12                  

(X_U1.XA3.110) 1.504E-12              (X_U1.XA3.111)     .0010                  

(X_U1.XA3.112) -144.0000              (X_U1.XA3.113)  144.0000                  

(X_U1.XA3.114) 10.46E-09              (X_U1.XA3.115)     .0010                  

(X_U1.XA3.116)     .0010              (X_U1.XA3.117)     .0010                  

(X_U1.XA3.118) 7.501E-06              (X_U1.XA3.119) 22.96E-09                  

(X_U1.XA3.120) 7.500E-06              (X_U1.XA3.121) 7.501E-06                  

(X_U1.XA3.122)    -.0090              (X_U1.XA3.123)-7.500E-06                  

(X_U1.XA3.124)    -.7500              (X_U1.XA3.125)     .0025                  

(X_U1.XA3.126) 984.3E-06              (X_U1.XA3.127) 80.00E-06                  

(X_U1.Xe_nn.3)    0.0000              (X_U1.Xe_nn.4)    0.0000                  

(X_U1.Xe_nn.5)    0.0000              (X_U1.Xe_nn.6)    0.0000                  

(X_U1.Xe_nn.7)     .8338              (X_U1.Xe_nn.8)     .8338                  

(X_U1.Xe_np.3)    0.0000              (X_U1.Xe_np.4)    0.0000                  

(X_U1.Xe_np.5)    0.0000              (X_U1.Xe_np.6)    0.0000                  

(X_U1.Xe_np.7)     .8338              (X_U1.Xe_np.8)     .8338                  

(X_U1.Xi_nn.3)    0.0000              (X_U1.Xi_nn.4)    0.0000                  

(X_U1.Xi_nn.5)    0.0000              (X_U1.Xi_nn.6)    0.0000                  

(X_U1.Xi_nn.7)     .8338              (X_U1.Xi_nn.8)     .8338                  

(X_U1.Xi_np.3)    0.0000              (X_U1.Xi_np.4)    0.0000                  

(X_U1.Xi_np.5)    0.0000              (X_U1.Xi_np.6)    0.0000                  

(X_U1.Xi_np.7)     .8338              (X_U1.Xi_np.8)     .8338                  

(X_U1.IN+_J1_19)    -.0090            (X_U1.IN+_J1_26)   14.0000                

(X_U1.IN-_J1_20)    -.0090            (X_U1.IN-_J1_24)   14.0000                

(X_U1.XA3.VCLP3)     .0010            (X_U1.XA1.VIMON1)-902.8E-06               

(X_U1.XA2.VIMON2)-896.4E-06           (X_U1.XA3.CLAMP3)     .0010               

(X_U1.XA3.SW_OL3) 1.504E-12           (X_U1.XA3.VIMON3) 984.3E-06               

(X_U1.XA3.VOUT_S3) 80.00E-06          (X_U1.XA3.VSENSE3)     .0010              

(X_U1.XA3.Xe_n3.3)    0.0000          (X_U1.XA3.Xe_n3.4)    0.0000              

(X_U1.XA3.Xe_n3.5)    0.0000          (X_U1.XA3.Xe_n3.6)    0.0000              

(X_U1.XA3.Xe_n3.7)     .8338          (X_U1.XA3.Xe_n3.8)     .8338              

(X_U1.XA3.VCC_CLP3)   14.9700         (X_U1.XA3.VEE_CLP3)  -14.9600             

(X_U1.XA3.CL_CLAMP3)     .0010        (X_U1.XA3.CLAW_CLAMP3)     .0010      




    VOLTAGE SOURCE CURRENTS
    NAME         CURRENT

    V_V2        -6.010E-04
    V_V3        -6.018E-04
    V_V4        -1.500E-10
    X_U1.VCM_MINn   1.300E-08
    X_U1.VCM_MAXn  -1.300E-08
    X_U1.V_OSn   2.534E-18
    X_U1.VCM_MINp   1.300E-08
    X_U1.VCM_MAXp  -1.300E-08
    X_U1.VB      0.000E+00
    X_U1.XA3.VCM_MAX1  -1.300E-08
    X_U1.XA3.VCM_MIN1   1.300E-08
    X_U1.XA3.V5  -4.505E-10
    X_U1.XA3.V_ORp3   0.000E+00
    X_U1.XA3.V4   6.507E-10
    X_U1.XA3.V_ORn3   0.000E+00
    X_U1.XA3.V_ISCn3   1.800E-08
    X_U1.XA3.V_ISCp3  -1.800E-08
    X_U1.XA3.V_GRn3   1.440E-07
    X_U1.XA3.V_GRp3  -1.440E-07
    X_U1.XA3.V3   9.843E-07
    X_U1.XU2.VSENSE  -8.988E-07
    X_U1.XA2.V2  -8.964E-07
    X_U1.XA1.V1  -9.028E-07

    TOTAL POWER DISSIPATION   1.81E-02  WATTS

Reducing minimum delta to make the circuit converge.
Reducing minimum delta to make the circuit converge.
Reducing minimum delta to make the circuit converge.


          JOB CONCLUDED

**** 05/09/20 16:53:38 ****** PSpice 17.2.0 (March 2016) ****** ID# 0 ********

 ** Profile: "SCHEMATIC1-test_2"  [ E:\PCB_ESP_CON_USB\Simulaciones\NILM_PROJECT_TEST2-PSpiceFiles\SCHEMATIC1\test_2.sim ] 


 ****     JOB STATISTICS SUMMARY


******************************************************************************



  Total job time (using Solver 1)   =        2.67
